frequency_hz,frequency_ghz,S21_model_real,S21_model_imag,S21_model_mag
4399999999.999999,4.3999999999999995,0.029133420155061707,-0.009834805012402907,0.030748651345438572
4402000000.0,4.402,0.02919840694141128,-0.009886793874497143,0.03082686589702314
4404000000.0,4.404,0.029263613901800916,-0.009939029052299337,0.030905394304168422
4406000000.0,4.406,0.02932904218723687,-0.009991512073847544,0.030984238398620703
4407999999.999999,4.4079999999999995,0.029394692956788343,-0.010044244479647479,0.031063400026249396
4410000000.0,4.41,0.029460567377657544,-0.01009722782279917,0.03114288104718331
4412000000.0,4.412,0.029526666625249595,-0.010150463669124615,0.03122268333594739
4414000000.0,4.414,0.029592991883244144,-0.010203953597297748,0.031302808781602326
4416000000.0,4.416,0.029659544343666862,-0.010257699198975189,0.03138325928788463
4418000000.0,4.418,0.029726325206962112,-0.01031170207892912,0.031464036773349066
4420000000.0,4.42,0.02979333568206632,-0.010365963855181681,0.03154514317151246
4422000000.0,4.422,0.02986057698648193,-0.010420486159140745,0.03162658043099915
4424000000.0,4.424,0.029928050346352306,-0.010475270635737777,0.031708350515688266
4425999999.999999,4.425999999999999,0.02999575699653719,-0.010530318943566968,0.031790455404862555
4428000000.0,4.428,0.030063698180689342,-0.010585632755026525,0.03187289709335934
4430000000.0,4.43,0.03013187515133133,-0.010641213756461168,0.03195567759172252
4431999999.999999,4.431999999999999,0.030200289169933673,-0.010697063648306856,0.0320387989263571
4434000000.0,4.434,0.030268941506993725,-0.01075318414523721,0.03212226313968536
4436000000.0,4.436,0.0303378334421149,-0.010809576976311443,0.03220607229030432
4438000000.0,4.438,0.03040696626408737,-0.010866243885124523,0.032290228453145914
4439999999.999999,4.439999999999999,0.0304763412709691,-0.010923186629958961,0.03237473371963835
4442000000.0,4.442,0.030545959770168114,-0.01098040698393873,0.032459590197870015
4444000000.0,4.444,0.030615823078525107,-0.011037906735184625,0.03254480001275449
4446000000.0,4.446,0.030685932522397468,-0.011095687686972198,0.032630365306198415
4448000000.0,4.448,0.03075628943774394,-0.01115375165789131,0.032716288237270935
4449999999.999999,4.449999999999999,0.030826895170209957,-0.011212100482007603,0.032802570982374976
4452000000.0,4.452,0.030897751075214402,-0.011270736009026412,0.0328892157354212
4454000000.0,4.454,0.030968858518036532,-0.011329660104458152,0.032976224708003106
4455999999.999999,4.455999999999999,0.03104021887390459,-0.011388874649786454,0.033063600129575293
4458000000.0,4.458,0.0311118335280849,-0.011448381542638057,0.03315134424763321
4460000000.0,4.46,0.0311837038759717,-0.011508182696954646,0.0332394593278949
4462000000.0,4.462,0.03125583132317869,-0.011568280043167525,0.03332794765448581
4464000000.0,4.464,0.03132821728563062,-0.011628675528373905,0.033416811530124886
4466000000.0,4.466,0.03140086318965662,-0.011689371116515808,0.03350605327631361
4468000000.0,4.468,0.03147377047208386,-0.011750368788561009,0.033595675233526814
4470000000.0,4.47,0.03154694058033284,-0.01181167054268659,0.03368567976140634
4472000000.0,4.472,0.0316203749725131,-0.011873278394464556,0.033776069238956624
4474000000.0,4.474,0.03169407511752037,-0.011935194377050009,0.03386684606474288
4476000000.0,4.476,0.031768042495134576,-0.01199742054137188,0.033958012657091814
4478000000.0,4.478,0.03184227859611884,-0.012059958956325702,0.034049571454294526
4480000000.0,4.48,0.0319167849223197,-0.012122811708969419,0.03414152491481217
4481999999.999999,4.481999999999999,0.03199156298676816,-0.01218598090472127,0.034233875517483935
4484000000.0,4.484,0.032066614313782216,-0.01224946866756068,0.03432662576173798
4486000000.0,4.486,0.03214194043906985,-0.012313277140231262,0.03441977816780427
4488000000.0,4.488,0.03221754290983379,-0.012377408484446992,0.034513335276930894
4490000000.0,4.49,0.03229342328487708,-0.012441864881100807,0.034607299651602565
4492000000.0,4.492,0.03236958313470962,-0.012506648530475908,0.034701673875761854
4494000000.0,4.494,0.032446024041656224,-0.01257176165246001,0.03479646055503344
4496000000.0,4.496,0.03252274759996555,-0.012637206486762254,0.03489166231695089
4498000000.0,4.498,0.032599755415920355,-0.012702985293133212,0.03498728181118658
4500000000.0,4.5,0.032677049107948844,-0.012769100351587404,0.03508332170978412
4502000000.0,4.502,0.03275463030673728,-0.012835553962629268,0.03517978470739411
4504000000.0,4.504,0.03283250065534385,-0.01290234844748175,0.03527667352151261
4505999999.999999,4.505999999999999,0.032910661809313575,-0.012969486148318068,0.03537399089272266
4508000000.0,4.508,0.03298911543679492,-0.013036969428496775,0.03547173958493917
4510000000.0,4.51,0.03306786321865685,-0.013104800672799392,0.03556992238565614
4512000000.0,4.512,0.03314690684860815,-0.013172982287671997,0.035668542106198096
4514000000.0,4.514,0.033226248033317286,-0.013241516701469433,0.035767601581973806
4516000000.0,4.516,0.03330588849253385,-0.013310406364703098,0.035867103672733706
4518000000.0,4.518,0.03338582995921152,-0.013379653750292122,0.0359670512628307
4520000000.0,4.52,0.03346607417963189,-0.013449261353817653,0.03606744726148382
4522000000.0,4.522,0.03354662291353015,-0.01351923169378098,0.036168294603045895
4524000000.0,4.524,0.033627477934221814,-0.013589567311864767,0.036269596247274084
4526000000.0,4.526,0.03370864102873096,-0.013660270773198247,0.03637135517960444
4528000000.0,4.528,0.033790113997919896,-0.01373134466662563,0.03647357441142958
4530000000.0,4.53,0.03387189865662017,-0.013802791604978465,0.0365762569803802
4532000000.0,4.532,0.03395399683376515,-0.01387461422535171,0.0366794059506103
4534000000.0,4.534,0.03403641037252386,-0.01394681518938334,0.03678302441308577
4536000000.0,4.536,0.03411914113043662,-0.014019397183538215,0.03688711548587732
4537999999.999999,4.537999999999999,0.034202190979551676,-0.014092362919395397,0.03699168231445654
4540000000.0,4.54,0.0342855618065641,-0.014165715133939983,0.03709672807199663
4542000000.0,4.542,0.03436925551295523,-0.014239456589858306,0.03720225595967619
4544000000.0,4.544,0.03445327401513458,-0.014313590075837882,0.03730826920698778
4546000000.0,4.546,0.03453761924458295,-0.014388118406871181,0.037414771072050296
4548000000.0,4.548,0.03462229314799689,-0.014463044424563618,0.037521764841925195
4550000000.0,4.55,0.03470729768743521,-0.014538370997446069,0.037629253832937304
4552000000.0,4.552,0.034792634840466775,-0.014614101021291476,0.037737241390999626
4554000000.0,4.554,0.034878306600320264,-0.01469023741943622,0.03784573089194273
4556000000.0,4.556,0.034964314976035214,-0.014766783143105679,0.03795472574184815
4558000000.0,4.558,0.035050661992615084,-0.014843741171744595,0.03806422937738655
4560000000.000001,4.560000000000001,0.03513734969118197,-0.014921114513352169,0.038174245266160464
4561999999.999999,4.561999999999999,0.035224380129132773,-0.014998906204821479,0.03828477690705114
4564000000.0,4.564,0.03531175538029776,-0.015077119312284538,0.03839582783057101
4566000000.0,4.566,0.03539947753509987,-0.015155756931461109,0.0385074015992195
4568000000.0,4.568,0.03548754870071706,-0.015234822188013666,0.0386195018078452
4570000000.0,4.57,0.0355759710012454,-0.015314318237906556,0.03873213208401173
4572000000.0,4.572,0.03566474657786459,-0.01539424826777078,0.03884529608836915
4574000000.0,4.574,0.035753877589005334,-0.015474615495273875,0.038958997515030444
4576000000.0,4.576,0.035843366210518215,-0.015555423169495014,0.03907324009195272
4578000000.0,4.578,0.03593321463584502,-0.015636674571305745,0.039188027581324204
4580000000.0,4.58,0.036023425076191426,-0.015718373013755928,0.03930336377995588
4582000000.0,4.582,0.03611399976070217,-0.015800521842465644,0.03941925251967914
4584000000.000001,4.5840000000000005,0.036204940936637856,-0.015883124436022373,0.03953569766774841
4585999999.999999,4.585999999999999,0.03629625086955376,-0.015966184206384147,0.039652703127249375
4588000000.0,4.588,0.03638793184348124,-0.016049704599289005,0.03977027283751364
4590000000.0,4.59,0.03647998616111011,-0.01613368909466942,0.03988841077453751
4592000000.0,4.592,0.03657241614397428,-0.01621814120707384,0.04000712095140835
4593999999.999999,4.593999999999999,0.036665224132638584,-0.01630306448609373,0.04012640741873552
4596000000.0,4.596,0.03675841248688852,-0.016388462516797465,0.04024627426508841
4598000000.0,4.598,0.036851983585921275,-0.016474338920169838,0.04036672561743935
4600000000.0,4.6,0.036945939828539734,-0.01656069735355896,0.040487765641613924
4602000000.0,4.602,0.037040283633348436,-0.016647541511129207,0.0406093985427471
4604000000.0,4.604,0.03713501743895142,-0.016734875124321,0.040731628565745366
4606000000.0,4.606,0.03723014370415299,-0.016822701962317596,0.040854459995756244
4608000000.0,4.608,0.03732566490816013,-0.01691102583251862,0.04097789715864357
4610000000.0,4.61,0.03742158355078784,-0.016999850581020923,0.04110194442147029
4612000000.0,4.612,0.03751790215266625,-0.01708918009310643,0.04122660619298736
4614000000.0,4.614,0.03761462325545058,-0.017179018293737386,0.041351886924130166
4616000000.0,4.616,0.03771174942203336,-0.017269369148059315,0.04147779110852188
4617999999.999999,4.617999999999999,0.0378092832367589,-0.01736023666191099,0.04160432328298366
4620000000.0,4.62,0.03790722730564076,-0.017451624882342986,0.041731488028052974
4622000000.0,4.622,0.038005584256580786,-0.01754353789814299,0.04185928996850807
4624000000.0,4.624,0.03810435673959194,-0.017635979840370308,0.04198773377390155
4626000000.0,4.626,0.03820354742702255,-0.017728954882897562,0.04211682415910034
4628000000.0,4.628,0.03830315901378377,-0.017822467242961167,0.04224656588483411
4630000000.0,4.63,0.038403194217579664,-0.017916521181720116,0.0423769637582516
4632000000.0,4.632,0.038503655779139626,-0.018011121004823265,0.04250802263348482
4634000000.0,4.634,0.038604546462453884,-0.018106271062985606,0.04263974741222174
4635999999.999999,4.635999999999999,0.038705869055011305,-0.01820197575257299,0.04277214304428686
4638000000.0,4.638,0.03880762636804054,-0.01829823951619651,0.04290521452823108
4640000000.000001,4.640000000000001,0.03890982123675325,-0.018395066843315364,0.04303896691192918
4641999999.999999,4.6419999999999995,0.039012456520590655,-0.018492462270849615,0.043173405293186834
4644000000.0,4.644,0.03911553510347326,-0.018590430383802804,0.04330853482035691
4646000000.0,4.646,0.039219059894052284,-0.01868897581589302,0.0434443606929633
4648000000.0,4.648,0.03932303382596543,-0.018788103250195403,0.04358088816233584
4649999999.999999,4.6499999999999995,0.039427459858094614,-0.01888781741979357,0.043718122532253365
4652000000.0,4.652,0.03953234097482746,-0.018988123108442116,0.043856069159597236
4654000000.0,4.654,0.03963768018632091,-0.01908902515123866,0.04399473345501345
4656000000.0,4.656,0.039743480528769026,-0.019190528435307618,0.04413412088358613
4658000000.0,4.658,0.03984974506467298,-0.01929263790049379,0.04427423696551978
4660000000.0,4.66,0.03995647688311467,-0.01939535854006762,0.044415087276832535
4662000000.0,4.662,0.04006367910003356,-0.019498695401441567,0.04455667745005977
4664000000.0,4.664,0.0401713548585064,-0.019602653586897584,0.04469901317496791
4665999999.999999,4.6659999999999995,0.04027950732903055,-0.01970723825432672,0.04484210019927952
4668000000.0,4.668,0.040388139709810734,-0.01981245461798047,0.04498594432940945
4670000000.0,4.67,0.04049725522704834,-0.019918307949233646,0.04513055143121119
4672000000.0,4.672,0.04060685713523528,-0.020024803577360563,0.04527592743073609
4673999999.999999,4.6739999999999995,0.040716948717450324,-0.02013194689032289,0.045422078315002945
4676000000.0,4.676,0.04082753328565963,-0.020239743335571023,0.045569010132780335
4678000000.0,4.678,0.04093861418101989,-0.020348198420857458,0.04571672899537968
4680000000.0,4.68,0.04105019477418617,-0.020457317715064732,0.04586524107746217
4682000000.0,4.682,0.04116227846562233,-0.020567106849045717,0.04601455261785666
4684000000.0,4.684,0.04127486868591575,-0.020677571516478498,0.04616466992039119
4686000000.0,4.686,0.041387968896095334,-0.02078871747473469,0.04631559935473679
4688000000.0,4.688,0.04150158258795348,-0.02090055054576246,0.0464673473572647
4690000000.0,4.69,0.04161571328437182,-0.021013076616984098,0.04661992043191714
4691999999.999999,4.691999999999999,0.0417303645396505,-0.021126301642207964,0.046773325151090964
4694000000.0,4.694,0.041845539939841844,-0.021240231642556475,0.046927568156536266
4696000000.000001,4.696000000000001,0.04196124310308721,-0.021354872707408372,0.04708265616026776
4697999999.999999,4.697999999999999,0.042077477679958175,-0.02147023099535749,0.047238595945491305
4700000000.0,4.7,0.04219424735380255,-0.021586312735188056,0.04739539436754605
4702000000.0,4.702,0.042311555841092204,-0.02170312422686436,0.04755305835485843
4704000000.0,4.704,0.042429406891777606,-0.02182067184253951,0.04771159490991494
4705999999.999999,4.705999999999999,0.04254780428964453,-0.021938962027579317,0.047871011110247726
4708000000.0,4.708,0.0426667518526762,-0.022058001301604714,0.04803131410943744
4710000000.0,4.71,0.042786253433418506,-0.022177796259550697,0.048192511138130764
4712000000.0,4.712,0.04290631291935073,-0.022298353572744435,0.04835460950507581
4714000000.0,4.714,0.04302693423325959,-0.022419679990000774,0.04851761659817275
4715999999.999999,4.715999999999999,0.04314812133361816,-0.022541782338736913,0.048681539885542094
4718000000.0,4.718,0.043269878214969304,-0.022664667526106408,0.0488463869166105
4720000000.0,4.72,0.043392208908312836,-0.022788342540151583,0.049012165323212835
4722000000.0,4.722,0.04351511748149829,-0.022912814450977315,0.04917888282071394
4724000000.0,4.724,0.04363860803962131,-0.0230380904119436,0.049346547209147155
4726000000.0,4.726,0.04376268472542516,-0.02316417766087987,0.04951516637437227
4728000000.0,4.728,0.04388735171970669,-0.02329108352131959,0.04968474828925197
4730000000.0,4.73,0.04401261324172712,-0.023418815403756735,0.049855301014847836
4732000000.0,4.732,0.04413847354962754,-0.023547380806924294,0.050026832701636
4734000000.0,4.734,0.04426493694084909,-0.023676787319094558,0.050199351590742514
4736000000.0,4.736,0.04439200775255836,-0.023807042619402974,0.0503728660151998
4738000000.0,4.738,0.044519690362077126,-0.02393815447919447,0.050547384401222986
4740000000.0,4.74,0.04464798918731773,-0.024070130763394423,0.05072291526950859
4742000000.0,4.742,0.044776908687222776,-0.024202979431902853,0.05089946723655366
4744000000.0,4.744,0.044906453362210365,-0.02433670854101411,0.051077049015997814
4746000000.0,4.746,0.045036627754624386,-0.02447132624486167,0.051255669419987666
4747999999.999999,4.747999999999999,0.045167436449189566,-0.024606840796888105,0.05143533736056346
4750000000.0,4.75,0.04529888407347248,-0.02474326055134239,0.05161606185107031
4752000000.0,4.752,0.04543097529834668,-0.024880593964802626,0.05179785200759158
4754000000.0,4.754,0.04556371483846448,-0.025018849597727637,0.05198071705040846
4756000000.0,4.756,0.04569710745273294,-0.02515803611603537,0.052164666305482686
4758000000.0,4.758,0.0458311579447959,-0.025298162292710376,0.05234970920596542
4760000000.0,4.76,0.04596587116352135,-0.02543923700944038,0.05253585529373177
4762000000.0,4.762,0.04610125200349396,-0.025581269258282354,0.05272311422094106
4764000000.0,4.764,0.046237305405513754,-0.025724268143359246,0.0529114957516247
4766000000.0,4.766,0.04637403635709976,-0.025868242882587388,0.05310100976330058
4768000000.0,4.768,0.04651144989299975,-0.026013202809435948,0.05329166624861595
4770000000.0,4.77,0.046649551095705365,-0.026159157374718345,0.05348347531701831
4771999999.999999,4.771999999999999,0.04678834509597307,-0.026306116148416717,0.05367644719645533
4774000000.0,4.774,0.04692783707335127,-0.026454088821540787,0.053870592235105146
4776000000.0,4.776,0.04706803225671215,-0.02660308520801964,0.05406592090313499
4778000000.0,4.778,0.04720893592479087,-0.02675311524663066,0.054262443794493
4780000000.0,4.78,0.0473505534067293,-0.026904189002962525,0.05446017162872931
4782000000.0,4.782,0.04749289008262669,-0.027056316671416402,0.05465911525285079
4784000000.0,4.784,0.04763595138409564,-0.027209508577243538,0.05485928564320732
4786000000.0,4.786,0.047779742794824456,-0.027363775178621735,0.05506069390741216
4788000000.0,4.788,0.047924269851145555,-0.027519127068771042,0.05526335128629629
4790000000.0,4.79,0.04806953814260971,-0.027675574978108936,0.05546726915589714
4792000000.0,4.792,0.04821555331256684,-0.027833129776446985,0.055672459029483465
4794000000.000001,4.794000000000001,0.048362321058752496,-0.027991802475228738,0.05587893255961567
4796000000.0,4.796,0.0485098471338806,-0.02815160422981037,0.0560867015402434
4798000000.0,4.798,0.048658137346243274,-0.02831254634178582,0.05629577790884183
4800000000.0,4.8,0.048807197560315305,-0.028474640261354867,0.0565061737485845
4802000000.0,4.802,0.04895703369736655,-0.028637897589738493,0.056717901290557586
4803999999.999999,4.803999999999999,0.04910765173607923,-0.028802330081639353,0.05693097291601253
4806000000.0,4.806,0.049259057713172925,-0.02896794964775142,0.0571454011586616
4808000000.0,4.808,0.04941125772403436,-0.029134768357316446,0.05736119870701303
4810000000.0,4.81,0.049564257923355115,-0.02930279844073213,0.057578378406751285
4812000000.0,4.812,0.04971806452577444,-0.029472052292209724,0.05779695326315925
4814000000.0,4.814,0.04987268380652915,-0.029642542472484337,0.058016936443585784
4816000000.0,4.816,0.0500281221021099,-0.029814281711578672,0.05823834127995914
4818000000.0,4.818,0.05018438581092326,-0.029987282911620332,0.05846118127134579
4820000000.0,4.82,0.05034148139396102,-0.03016155914971591,0.05868547008655835
4822000000.0,4.822,0.050499415375475046,-0.030337123680880925,0.05891122156681044
4824000000.0,4.824,0.05065819434365932,-0.030513989941028982,0.059138449728422665
4826000000.000001,4.8260000000000005,0.05081782495133766,-0.03069217155001973,0.05936716876557814
4827999999.999999,4.827999999999999,0.05097831391665792,-0.030871682314767893,0.059597393053130034
4830000000.0,4.83,0.05113966802379356,-0.031052536232415776,0.05982913714946345
4832000000.0,4.832,0.05130189412364931,-0.0312347474935672,0.06006241579940842
4834000000.0,4.834,0.051464999134575584,-0.031418330485589376,0.06029724393721143
4835999999.999999,4.835999999999999,0.05162899004308725,-0.03160329979597947,0.060533636689560945
4838000000.0,4.838,0.05179387390459002,-0.031789670215801216,0.06077160937867262
4840000000.0,4.84,0.05195965784411146,-0.03197745674318965,0.061011177525431344
4842000000.0,4.842,0.05212634905703958,-0.03216667458692912,0.06125235685259567
4844000000.0,4.844,0.05229395480986673,-0.032357339170103895,0.06149516328806294
4846000000.0,4.846,0.05246248244093918,-0.032549466133823375,0.061739612968197057
4848000000.0,4.848,0.05263193936121345,-0.032743071341024915,0.06198572224122178
4850000000.0,4.85,0.052802333055017435,-0.03293817088035446,0.06223350767067863
4851999999.999999,4.851999999999999,0.052973671080818116,-0.03313478107012846,0.06248298603895343
4854000000.0,4.854,0.053145961071994686,-0.03333291846237779,0.06273417435087116
4856000000.0,4.856,0.053319210737616037,-0.03353259984697533,0.06298708983736016
4858000000.0,4.858,0.053493427863225876,-0.033733842255851826,0.06324174995919107
4859999999.999999,4.859999999999999,0.0536686203116308,-0.033936662967298234,0.0634981724107866
4862000000.0,4.862,0.053844796023695324,-0.034141079510360495,0.06375637512410906
4864000000.0,4.864,0.05402196301914001,-0.03434710966932515,0.06401637627262247
4866000000.0,4.866,0.0542001293973464,-0.034554771488302306,0.06427819427533636
4868000000.0,4.868,0.05437930333816496,-0.03476408327590428,0.06454184780092809
4870000000.0,4.87,0.05455949310272814,-0.034975063610024795,0.0648073557719486
4872000000.0,4.872,0.05474070703426784,-0.03518773134272078,0.06507473736911303
4874000000.0,4.874,0.054922953558936165,-0.03540210560519788,0.06534401203567655
