frequency_hz,frequency_ghz,S21_real,S21_imag,S21_mag,S11_real,S11_imag,S11_mag
4.399999999999999e9,4.3999999999999995,0.02919187579794956,-0.009672128890658526,0.03075249079148589,-0.18050192836811396,-0.9830937585833396,0.9995270303048964
4.402e9,4.402,0.02925681761013196,-0.009724595498033953,0.030830652511306175,-0.18129230678200287,-0.9829458633960427,0.9995246224409541
4.404e9,4.404,0.029321979041227065,-0.009777308747542797,0.030909128445152513,-0.182082650492128,-0.9827973006518287,0.9995221987423588
4.406e9,4.406,0.029387361241164332,-0.00983027016631598,0.030987920424924445,-0.1828729594991527,-0.9826480699984886,0.9995197590781952
4.407999999999999e9,4.4079999999999995,0.029452965368281573,-0.009883481294085582,0.031067030297016376,-0.18366323380650534,-0.9824981710803634,0.9995173033162168
4.41e9,4.41,0.02951879258887746,-0.00993694368307849,0.031146459921889042,-0.18445347342034782,-0.9823476035383337,0.9995148313228465
4.412e9,4.412,0.029584844077424916,-0.009990658898249091,0.031226211174375733,-0.1852436783509033,-0.9821963670095333,0.9995123429631566
4.414e9,4.414,0.02965112101666513,-0.01004462851743109,0.03130628594385017,-0.1860338486126816,-0.9820444611272746,0.999509838100859
4.416e9,4.416,0.029717624597809387,-0.010098854131432453,0.031386686134478675,-0.18682398422183896,-0.9818918855215042,0.9995073165982812
4.418e9,4.418,0.02978435602038787,-0.010153337344192355,0.03146741366515822,-0.18761408519982448,-0.981738639818082,0.9995047783163543
4.42e9,4.42,0.029851316492279983,-0.010208079772786097,0.03154847046957794,-0.18840415157027723,-0.9815847236393396,0.9995022231146035
4.422e9,4.422,0.029918507230199263,-0.010263083047855712,0.03162985849684865,-0.18919418336206648,-0.9814301366034309,0.9994996508510987
4.424e9,4.424,0.02998592945936304,-0.010318348813449583,0.031711579711170376,-0.18998418060613756,-0.9812748783249442,0.9994970613824833
4.425999999999999e9,4.425999999999999,0.030053584413559545,-0.010373878727246589,0.031793636092000685,-0.19077414333816903,-0.9811189484143291,0.9994944545639317
4.428e9,4.428,0.0301214733357001,-0.010429674460905912,0.03187602963472341,-0.1915640715980538,-0.9809623464779387,0.999491830249116
4.43e9,4.43,0.03018959747722347,-0.010485737699798462,0.0319587623500309,-0.19235396542734756,-0.980805072118527,0.9994891882902256
4.431999999999999e9,4.4319999999999995,0.030257958098684014,-0.010542070143527179,0.032041836264683154,-0.19314382487312215,-0.9806471249344312,0.9994865285379214
4.434e9,4.434,0.030326556469575765,-0.010598673505886315,0.03212525342136221,-0.19393364998606408,-0.9804885045199128,0.9994838508413291
4.436e9,4.436,0.03039539386863428,-0.010655549515122775,0.032209015879077145,-0.19472344082076762,-0.9803292104650453,0.9994811550480069
4.438e9,4.438,0.03046447158366213,-0.01071269991393629,0.032293125713033846,-0.19551319743494447,-0.980169242355854,0.999478441003949
4.439999999999999e9,4.4399999999999995,0.030533790911593337,-0.010770126459690187,0.032377585014800266,-0.19630291989130597,-0.9800085997738777,0.999475708553544
4.442e9,4.442,0.03060335315901889,-0.0108278309246942,0.032462395892931185,-0.19709260825535369,-0.9798472822965785,0.999472957539567
4.444e9,4.444,0.030673159641782143,-0.010885815096207048,0.032547560472623166,-0.19788226259760022,-0.9796852894968531,0.9994701878031572
4.446e9,4.446,0.03074321168518761,-0.010944080776593501,0.032633080895999686,-0.19867188299194902,-0.9795226209433185,0.9994673991838027
4.448e9,4.448,0.03081351062423214,-0.011002629783598361,0.032718959322456956,-0.19946146951686847,-0.979359276200019,0.9994645915193062
4.449999999999999e9,4.449999999999999,0.030884057803491512,-0.011061463950391969,0.03280519792860921,-0.20025102225501262,-0.9791952548264773,0.9994617646457854
4.452e9,4.452,0.03095485457738535,-0.011120585125786933,0.032891798908648164,-0.2010405412921945,-0.9790305563778365,0.9994589183976271
4.454e9,4.454,0.03102590231022406,-0.01117999517446538,0.032978764474501404,-0.20183002671975372,-0.9788651804043511,0.9994560526074867
4.455999999999999e9,4.4559999999999995,0.03109720237612617,-0.011239695976987893,0.033066096855795736,-0.2026194786324645,-0.9786991264517569,0.9994531671062551
4.458e9,4.458,0.031168756159344436,-0.011299689430087665,0.03315379830030198,-0.2034088971288186,-0.9785323940611811,0.9994502617230479
4.46e9,4.46,0.031240565054388197,-0.011359977446926284,0.033241871074175935,-0.20419828231294931,-0.9783649827686653,0.999447336285154
4.462e9,4.462,0.03131263046556795,-0.011420561956918322,0.03333031746150979,-0.20498763429235953,-0.9781968921056426,0.9994443906180656
4.464e9,4.4639999999999995,0.0313849538079093,-0.011481444906351395,0.03341913976544254,-0.20577695317913297,-0.9780281215985812,0.9994414245453989
4.466e9,4.466,0.031457536506670665,-0.011542628258303048,0.03350834030771882,-0.2065662390905022,-0.9778586707688534,0.9994384378889093
4.468e9,4.468,0.031530379997466,-0.011604113992758468,0.03359792142888511,-0.20735549214678886,-0.9776885391331015,0.9994354304684496
4.47e9,4.47,0.03160348572678222,-0.011665904107089117,0.03368788548898144,-0.20814471247379365,-0.9775177262026932,0.9994324021019539
4.472e9,4.472,0.03167685515165779,-0.011728000615977898,0.03377823486725567,-0.2089339002013872,-0.9773462314839556,0.999429352605402
4.474e9,4.474,0.03175048973980042,-0.011790405551650339,0.03386897196239589,-0.20972305546438988,-0.9771740544779555,0.9994262817928122
4.476e9,4.476,0.03182439096987588,-0.011853120964133743,0.03396009919293382,-0.21051217840194975,-0.9770011946805744,0.9994231894762119
4.478e9,4.478,0.031898560331639535,-0.01191614892146878,0.034051618997484816,-0.2113012691576806,-0.9768276515824085,0.9994200754655921
4.48e9,4.4799999999999995,0.031972999325727273,-0.011979491509802428,0.034143533834627975,-0.21209032788096738,-0.9766534246684581,0.9994169395689088
4.481999999999999e9,4.481999999999999,0.03204770946411898,-0.012043150833681888,0.034235846183487184,-0.21287935472485092,-0.9764785134185148,0.9994137815920398
4.484e9,4.484,0.03212269226991648,-0.012107129016143671,0.034328558543598946,-0.213668349847368,-0.9763029173068264,0.9994106013387676
4.486e9,4.486,0.03219794927777529,-0.012171428199069191,0.03442167343548665,-0.21445731341127508,-0.9761266358020962,0.9994073986107468
4.488e9,4.4879999999999995,0.03227348203364809,-0.012236050543250708,0.034515193400489474,-0.21524624558518335,-0.9759496683671814,0.9994041732074809
4.49e9,4.49,0.032349292095215164,-0.01230099822865257,0.03460912100130346,-0.21603514654070313,-0.975772014459657,0.9994009249262881
4.492e9,4.492,0.0324253810319566,-0.012366273454769717,0.034703458822222796,-0.2168240164567601,-0.9755936735308074,0.999397653562273
4.494e9,4.494,0.03250175042465077,-0.012431878440387983,0.03479820946863315,-0.2176128555158524,-0.9754146450264175,0.9993943589083217
4.496e9,4.4959999999999996,0.03257840186676299,-0.012497815424493216,0.03489337556868075,-0.21840166390529697,-0.9752349283863962,0.9993910407550298
4.498e9,4.498,0.032655336963251506,-0.012564086665889805,0.03498895977206939,-0.21919044181872444,-0.9750545230444206,0.9993876988907109
4.5e9,4.5,0.03273255733118193,-0.012630694443589925,0.03508496475082233,-0.2199791894539214,-0.974873428428341,0.9993843331013509
4.502e9,4.502,0.03281006460020889,-0.01269764105727624,0.03518139319994744,-0.2207679070140954,-0.9746916439598337,0.9993809431705747
4.504e9,4.5040000000000004,0.03288786041215085,-0.012764928827259738,0.03527824783707555,-0.22155659470807673,-0.9745091690543027,0.9993775288796254
4.505999999999999e9,4.505999999999999,0.03296594642124261,-0.01283256009477049,0.03537553140285153,-0.22234525274996647,-0.9743260031208878,0.9993740900073259
4.508e9,4.508,0.03304432429439107,-0.012900537222221247,0.035473246661319284,-0.22313388135821385,-0.9741421455626076,0.9993706263300428
4.51e9,4.51,0.03312299571130055,-0.012968862593555673,0.03557139640021688,-0.22392248075836022,-0.9739575957756897,0.9993671376216751
4.512e9,4.512,0.03320196236433596,-0.013037538614229955,0.035669983430894926,-0.2247110511797259,-0.9737723531502334,0.999363623653593
4.514e9,4.514,0.03328122595887551,-0.013106567711695407,0.03576901058887408,-0.22549959285858048,-0.9735864170694377,0.9993600841946264
4.516e9,4.516,0.03336078821358173,-0.013175952335636827,0.035868480734238345,-0.22628810603593044,-0.9733997869100277,0.9993565190110163
4.518e9,4.518,0.03344065085985212,-0.013245694957904963,0.03596839675115361,-0.22707659095834656,-0.9732124620420195,0.9993529278664037
4.52e9,4.52,0.033520815642912635,-0.013315798073298113,0.03606876154922686,-0.22786504787859643,-0.9730244418284628,0.9993493105217548
4.522e9,4.522,0.03360128432094831,-0.013386264199252547,0.03616957806263984,-0.22865347705451342,-0.9728357256256845,0.999345666735375
4.524e9,4.524,0.03368205866613179,-0.013457095876630092,0.03627084925145203,-0.2294418787503108,-0.9726463127828661,0.9993419962628296
4.526e9,4.526,0.03376314046401238,-0.013528295669566382,0.03637257810103428,-0.23023025323601803,-0.9724562026421356,0.9993382988569403
4.528e9,4.5280000000000005,0.03384453151426373,-0.013599866166032705,0.036474767623029376,-0.2310186007867021,-0.9722653945386521,0.9993345742677207
4.53e9,4.53,0.03392623363014813,-0.013671809977839108,0.03657742085491451,-0.23180692168457107,-0.9720738878000634,0.9993308222423679
4.532e9,4.532,0.034008248639626835,-0.013744129741331709,0.03668054086135099,-0.23259521621663304,-0.9718816817469395,0.9993270425251793
4.534e9,4.534,0.0340905783839544,-0.013816828116975956,0.036784130732784706,-0.23338348467770723,-0.971688775692053,0.9993232348575862
4.536e9,4.536,0.03417322471976431,-0.013889907790506426,0.036888193587871466,-0.23417172736641986,-0.9714951689411789,0.9993193989780358
4.537999999999999e9,4.537999999999999,0.03425618951743721,-0.013963371472436953,0.03699273257184228,-0.23495994458908687,-0.9713008607921441,0.9993155346220065
4.54e9,4.54,0.034339474662293014,-0.014037221898834919,0.03709775085796165,-0.2357481366580024,-0.9711058505351319,0.9993116415219438
4.542e9,4.542,0.03442308205447633,-0.014111461831502288,0.03720325164755301,-0.2365363038919437,-0.9709101374524769,0.9993077194072152
4.544e9,4.544,0.03450701360886619,-0.014186094058112608,0.03730923817003095,-0.23732444661530305,-0.970713720818816,0.999303768004089
4.546e9,4.546,0.034591271255590285,-0.01426112139278456,0.03741571368365922,-0.23811256515984905,-0.9705165999005567,0.9992997870356726
4.548e9,4.548,0.03467585693978763,-0.014336546676114201,0.03752268147540923,-0.23890065986312647,-0.9703187739561963,0.9992957762218817
4.55e9,4.55,0.034760772622060725,-0.014412372775688527,0.03763014486164004,-0.23968873106940108,-0.9701202422359979,0.9992917352793882
4.552e9,4.552,0.03484602027865752,-0.014488602586447628,0.03773810718847234,-0.24047677913021168,-0.9699210039817617,0.9992876639215703
4.554e9,4.554,0.03493160190104299,-0.014565239030597633,0.037846571831427415,-0.24126480440245587,-0.9697210584272439,0.9992835618584994
4.556e9,4.556,0.0350175194969355,-0.014642285058527289,0.03795554219680479,-0.24205280725079564,-0.9695204047974204,0.999279428796843
4.558e9,4.558,0.03510377508974007,-0.014719743648678493,0.03806502172117949,-0.24284078804626708,-0.9693190423087953,0.99927526443987
4.560000000000001e9,4.5600000000000005,0.03519037071906719,-0.014797617808146124,0.03817501387218274,-0.2436287471678136,-0.9691169701688735,0.9992710684873528
4.561999999999999e9,4.561999999999999,0.0352773084407585,-0.014875910572799144,0.03828552214864423,-0.24441668499902305,-0.9689141875769441,0.9992668406355738
4.564e9,4.564,0.035364590327139706,-0.014954625007873382,0.03839655008112754,-0.2452046019326252,-0.9687106937228125,0.9992625805772324
4.566e9,4.566,0.035452218466943825,-0.01503376420808468,0.038508101231977156,-0.2459924983682225,-0.9685064877872871,0.9992582880014088
4.568e9,4.568,0.03554019496574905,-0.015113331298100132,0.03862017919597975,-0.24678037471147787,-0.9683015689423071,0.9992539625935296
4.57e9,4.57,0.035628521946220446,-0.015193329433007345,0.03873278760084535,-0.24756823137572148,-0.9680959363504038,0.999249604035282
4.572e9,4.572,0.03571720154783786,-0.015273761798451703,0.03884593010708733,-0.24835606878234073,-0.9678895891645375,0.9992452120045989
4.574e9,4.574,0.035806235927230715,-0.015354631611003635,0.03895961040855182,-0.24914388735876414,-0.9676825265284986,0.9992407861755919
4.576e9,4.576,0.035895627258887425,-0.015435942118985068,0.039073832233473584,-0.2499316875418347,-0.9674747475759158,0.9992363262184734
4.578e9,4.578,0.03598537773431255,-0.015517696602084708,0.03918859934362937,-0.2507194697734412,-0.9672662514313267,0.9992318317995509
4.58e9,4.58,0.036075489563204347,-0.01559989837250348,0.03930391553595268,-0.2515072345049942,-0.9670570372088679,0.9992273025811214
4.582e9,4.582,0.03616596497305329,-0.015682550774877516,0.039419784642216515,-0.25229498219428237,-0.9668471040130123,0.9992227382214448
4.584000000000001e9,4.5840000000000005,0.036256806209386545,-0.015765657186825984,0.03953621052955795,-0.25308271330802956,-0.9666364509377919,0.9992181383746817
4.585999999999999e9,4.585999999999999,0.03634801553581869,-0.015849221019210134,0.03965319710071168,-0.25387042832042633,-0.9664250770670728,0.9992135026908385
4.588e9,4.588,0.036439595234878615,-0.01593324571689028,0.03977074829515521,-0.2546581277127186,-0.9662129814745309,0.9992088308156857
4.59e9,4.59,0.03653154760738648,-0.016017734758753607,0.03988886808863506,-0.2554458119749645,-0.9660001632230983,0.9992041223907163
4.592e9,4.592,0.036623874973188135,-0.016102691658424484,0.04000756049421171,-0.25623348160543685,-0.9657866213650181,0.9991993770530988
4.593999999999999e9,4.593999999999999,0.03671657967106675,-0.01618811996451118,0.040126829562366344,-0.2570211371103362,-0.9655723549417625,0.999194594435574
4.596e9,4.596,0.03680966405882197,-0.01627402326094987,0.04024667938130135,-0.25780877900327676,-0.965357362984102,0.9991897741664392
4.598e9,4.598,0.03690313051399852,-0.016360405167865508,0.04036711407804537,-0.25859640780775095,-0.9651416445112813,0.9991849158694366
4.6e9,4.6,0.036996981433690374,-0.016447269341670893,0.04048813781840673,-0.2593840240545198,-0.964925198531617,0.9991800191637121
4.602e9,4.602,0.037091219234206975,-0.016534619475278067,0.04060975480684721,-0.2601716282832687,-0.9647080240419709,0.9991750836637847
4.604e9,4.604,0.037185846352705575,-0.016622459299368317,0.0407319692885844,-0.26095922104199865,-0.964490120027688,0.9991701089793823
4.606e9,4.606,0.03728086524590662,-0.016710792581995006,0.04085478554835293,-0.2617468028872913,-0.9642714854625102,0.9991650947154802
4.608e9,4.608,0.03737627839119783,-0.01679962312963512,0.040978207911938916,-0.2625343743854023,-0.9640521193080738,0.9991600404721573
4.61e9,4.61,0.03747208828635757,-0.016888954787276502,0.041102240746062085,-0.26332193611002297,-0.9638320205144278,0.9991549458445649
4.612e9,4.612,0.03756829745005523,-0.016978791439229368,0.04122688845926496,-0.26410948864559886,-0.9636111880189688,0.9991498104228256
4.614e9,4.614,0.03766490842211137,-0.017069137009469208,0.041352155502392705,-0.26489703258350433,-0.9633896207473673,0.9991446337919763
4.616e9,4.616,0.03776192376332947,-0.017159995462087803,0.04147804636872837,-0.2656845685258453,-0.9631673176124007,0.9991394155319026
4.617999999999999e9,4.617999999999999,0.037859346056147915,-0.01725137080193275,0.041604565594955324,-0.26647209708280944,-0.9629442775145128,0.9991341552172347
4.62e9,4.62,0.03795717790443238,-0.01734326707500405,0.04173171776123826,-0.26725961887543853,-0.9627204993409308,0.9991288524172925
4.622e9,4.622,0.038055421934185166,-0.01743568836911575,0.04185950749225055,-0.2680471345326035,-0.9624959819663482,0.9991235066959963
4.624e9,4.624,0.038154080793202545,-0.017528638814220503,0.04198793945710631,-0.2688346446936205,-0.962270724252069,0.9991181176118
4.626e9,4.626,0.03825315715192472,-0.017622122583247572,0.042117018370592826,-0.26962215000681294,-0.962044725046228,0.9991126847175791
4.628e9,4.628,0.03835265370296491,-0.01771614389228904,0.04224674899293244,-0.2704096511306808,-0.9618179831833618,0.9991072075605931
4.63e9,4.63,0.03845257316208542,-0.01781070700159295,0.04237713613119844,-0.2711971487338025,-0.9615904974842339,0.9991016856823537
4.632e9,4.632,0.038552918267584314,-0.017905816215595494,0.04250818463888712,-0.27198464349429635,-0.961362266755873,0.999096118618579
4.634e9,4.634,0.0386536917817004,-0.01800147588416961,0.04263989941783439,-0.27277213609930656,-0.9611332897915141,0.9990905058990588
4.635999999999999e9,4.635999999999999,0.03875489648929586,-0.018097690402438974,0.042772285417061455,-0.27355962724856453,-0.960903565369504,0.999084847047636
4.638e9,4.638,0.03885653519982344,-0.0181944642121797,0.04290534763527043,-0.27434711764962655,-0.9606730922544042,0.9990791415820356
4.640000000000001e9,4.640000000000001,0.0389586107459591,-0.01829180180163404,0.04303909111964868,-0.2751346080218005,-0.9604418691957791,0.9990733890138361
4.641999999999999e9,4.6419999999999995,0.0390611259850495,-0.018389707706762116,0.04317352096783462,-0.2759220990944225,-0.9602098949284815,0.999067588848341
4.644e9,4.644,0.03916408379848672,-0.018488186511351416,0.04330864232752403,-0.27670959160741515,-0.9599771681723487,0.9990617405845068
4.646e9,4.646,0.03926748709285554,-0.01858724284819518,0.04344446039813775,-0.2774970863112745,-0.9597436876320007,0.9990558437148137
4.648e9,4.648,0.039371338799472015,-0.018686881399314716,0.04358098043062897,-0.2782845839676613,-0.9595094519965133,0.9990498977251855
4.649999999999999e9,4.6499999999999995,0.03947564187471097,-0.018787106896633245,0.043718207728198996,-0.2790720853491011,-0.9592744599393549,0.9990439020949164
4.652e9,4.652,0.03958039930064895,-0.018887924122849446,0.04385614764738611,-0.27985959123862736,-0.9590387101182517,0.9990378562965128
4.654e9,4.654,0.03968561408524351,-0.018989337912124645,0.04399480559865826,-0.28064710243116314,-0.9588022011746371,0.9990317597956219
4.656e9,4.656,0.03979128926188917,-0.01909135315024832,0.04413418704622113,-0.28143461973217004,-0.9585649317338816,0.9990256120509484
4.658e9,4.658,0.039897427890933736,-0.01919397477617334,0.04427429751018796,-0.28222214395913686,-0.9583269004045979,0.9990194125140791
4.66e9,4.66,0.04000403305897618,-0.01929720778208768,0.044415142566119545,-0.283009675941067,-0.958088105778673,0.9990131606294451
4.662e9,4.662,0.04011110787916018,-0.01940105721407995,0.04455672784572078,-0.2837972165175899,-0.9578485464312972,0.9990068558341734
4.664e9,4.664,0.04021865549243834,-0.0195055281736485,0.044699059038781075,-0.2845847665420402,-0.9576082209198405,0.999000497557959
4.665999999999999e9,4.6659999999999995,0.04032667906635987,-0.01961062581729441,0.044842141892054196,-0.2853723268778387,-0.9573671277847721,0.9989940852229987
4.668e9,4.668,0.04043518179698079,-0.019716355358441618,0.04498598221196505,-0.2861598984012681,-0.9571252655485598,0.9989876182438024
4.67e9,4.67,0.04054416690743877,-0.019822722067074548,0.045130585863322636,-0.2869474820008473,-0.9568826327157385,0.9989810960271618
4.672e9,4.672,0.04065363765005526,-0.01992973127163962,0.045275958772197866,-0.2877350785770527,-0.9566392277726836,0.9989745179719346
4.673999999999999e9,4.6739999999999995,0.04076359730477701,-0.02003738835867901,0.04542210692452023,-0.2885226890429433,-0.9563950491872956,0.9989678834690034
4.676e9,4.676,0.040874049181364926,-0.020145698774822154,0.04556903636907971,-0.2893103143240612,-0.956150095408722,0.9989611919010644
4.678e9,4.678,0.04098499661776477,-0.020254668026380766,0.045716753216048504,-0.29009795535878474,-0.9559043648671326,0.998954442642598
4.68e9,4.68,0.04109644298216212,-0.020364301681323194,0.04586526363986197,-0.2908856130990918,-0.9556578559731576,0.9989476350596396
4.682e9,4.682,0.04120839167231589,-0.020474605369346165,0.04601457387882074,-0.2916732885079816,-0.9554105671184995,0.9989407685097015
